hour, t(sec), P1 (kW), Q1 (kvar), P2 (kW), Q2 (kvar), P3 (kW), Q3 (kvar), P4 (kW), Q4 (kvar)
0, 900.00000, 2834.68, 2095.81, 2594.07, 1880.71, 2900.66, 1779.89, 0, 0
0, 1800.00000, 2736.13, 2013.06, 2498.6, 1783.23, 2816.4, 1692.44, 0, 0
0, 2700.00000, 2660.73, 1924.9, 2438.84, 1716.07, 2730.63, 1628.33, 0, 0
1, 0.00000, 2731.67, 1998.57, 2495.21, 1788.84, 2795.07, 1688.92, 0, 0
1, 900.00000, 2687.43, 1952.64, 2456.17, 1748.5, 2748.59, 1650.3, 0, 0
1, 1800.00000, 2658.85, 1917.33, 2434.51, 1722.49, 2715.42, 1625.64, 0, 0
1, 2700.00000, 2674.01, 1933.15, 2445.4, 1742.08, 2725.18, 1639.64, 0, 0
2, 0.00000, 2702.68, 1986.11, 2461.19, 1762.43, 2775.65, 1665.13, 0, 0
2, 900.00000, 2642.93, 1908.36, 2415.64, 1711.19, 2700.04, 1612.93, 0, 0
2, 1800.00000, 2654.63, 1932.81, 2420.73, 1719.12, 2722.74, 1623.41, 0, 0
2, 2700.00000, 2600.47, 1871.06, 2377.55, 1668.76, 2664.2, 1576.86, 0, 0
3, 0.00000, 2509.92, 1765.28, 2303.67, 1590.66, 2558.02, 1499.35, 0, 0
3, 900.00000, 2525.89, 1806.12, 2309.31, 1591.26, 2603.68, 1511.12, 0, 0
3, 1800.00000, 2469.24, 1736.3, 2265.23, 1546.67, 2531.46, 1464.81, 0, 0
3, 2700.00000, 2595.05, 1879.1, 2367.35, 1653.71, 2676.4, 1569.21, 0, 0
4, 0.00000, 2567.7, 1852.65, 2343.52, 1626.06, 2651.85, 1545.21, 0, 0
4, 900.00000, 2536.75, 1806.75, 2322.22, 1601.61, 2607.15, 1518.39, 0, 0
4, 1800.00000, 2631.35, 1907.65, 2402.47, 1685.61, 2709.2, 1598.41, 0, 0
4, 2700.00000, 2547.26, 1823.37, 2330.23, 1605.6, 2627.35, 1526.53, 0, 0
5, 0.00000, 2583.63, 1854.27, 2362.45, 1643.04, 2655.97, 1557.11, 0, 0
5, 900.00000, 2553.74, 1829.56, 2334.41, 1615.51, 2629.44, 1532.59, 0, 0
5, 1800.00000, 2558.5, 1904.02, 2325.48, 1669.42, 2645.16, 1584.91, 0, 0
5, 2700.00000, 2534.82, 1874.73, 2308.6, 1644.17, 2621.38, 1563.54, 0, 0
6, 0.00000, 2435.67, 1785.48, 2218.82, 1548.05, 2532.86, 1478.97, 0, 0
6, 900.00000, 2519.96, 1870.09, 2293.31, 1619.34, 2623.78, 1548.43, 0, 0
6, 1800.00000, 2546.3, 1858.71, 2326.79, 1657.02, 2611.21, 1567.77, 0, 0
6, 2700.00000, 2266.69, 1748.73, 2061.39, 1545.4, 2340.13, 1469.26, 0, 0
7, 0.00000, 2347.13, 1827.16, 2136.68, 1606.04, 2433.39, 1534.35, 0, 0
7, 900.00000, 2389.9, 1868.82, 2177.93, 1633.14, 2488.03, 1567.41, 0, 0
7, 1800.00000, 2177.77, 1746.12, 1979.19, 1535.71, 2260.7, 1468.93, 0, 0
7, 2700.00000, 2191.47, 1759.69, 1993.94, 1533.06, 2288.97, 1475.31, 0, 0
8, 0.00000, 2296.77, 1836.43, 2098.39, 1623.62, 2381.88, 1558.22, 0, 0
8, 900.00000, 2201.12, 1744.85, 2012.32, 1533.02, 2290.17, 1475.42, 0, 0
8, 1800.00000, 2239, 1772.78, 2050.56, 1556.36, 2332.2, 1501.37, 0, 0
8, 2700.00000, 2239.14, 1880.2, 2035.99, 1642.81, 2343.16, 1585.57, 0, 0
9, 0.00000, 2372.26, 2003.44, 2151.07, 1774.91, 2459.58, 1697.62, 0, 0
9, 900.00000, 2323.57, 1952.62, 2111.91, 1722.86, 2416.72, 1654.44, 0, 0
9, 1800.00000, 2270.1, 1947.03, 2068.5, 1707.56, 2376.69, 1652.7, 0, 0
9, 2700.00000, 2170.28, 1840.25, 1976.79, 1630.8, 2254.92, 1567.95, 0, 0
10, 0.00000, 2180.4, 1855.36, 1987.2, 1633.78, 2275.7, 1577.25, 0, 0
10, 900.00000, 2265.12, 1936.87, 2062.91, 1709.5, 2360.92, 1648.07, 0, 0
10, 1800.00000, 2234.65, 1915.04, 2032.91, 1679.72, 2337.57, 1622.67, 0, 0
10, 2700.00000, 2249.64, 1991.12, 2035.81, 1724.84, 2373.33, 1672.79, 0, 0
11, 0.00000, 2232.15, 1960.36, 2027.13, 1711.13, 2345.48, 1658.19, 0, 0
11, 900.00000, 2209.48, 1899.99, 2020.69, 1704.49, 2284.39, 1638.74, 0, 0
11, 1800.00000, 2206.99, 1988.62, 1997.6, 1732.19, 2324.37, 1679.07, 0, 0
11, 2700.00000, 2172.74, 1962.72, 1964.98, 1701.82, 2294.8, 1652.34, 0, 0
12, 0.00000, 2121.59, 1892.06, 1923.9, 1673.01, 2212.44, 1611.33, 0, 0
12, 900.00000, 2258.24, 2051.73, 2038.09, 1787.53, 2376.97, 1728.97, 0, 0
12, 1800.00000, 2239.67, 2018.24, 2029.06, 1772.58, 2347.12, 1713.01, 0, 0
12, 2700.00000, 2111.97, 2015.34, 1899.44, 1755.92, 2230.37, 1701.57, 0, 0
13, 0.00000, 2067.58, 1975.32, 1857.75, 1714.47, 2188.57, 1663.18, 0, 0
13, 900.00000, 2118.06, 2016.31, 1904.22, 1759.1, 2233.88, 1702.51, 0, 0
13, 1800.00000, 2025.4, 2043.8, 1805.99, 1804.22, 2123.18, 1733.99, 0, 0
13, 2700.00000, 2414.11, 2250.52, 2175.18, 1981.46, 2527.66, 1909.07, 0, 0
14, 0.00000, 2352.86, 2186.93, 2120.73, 1923.18, 2465.21, 1854.02, 0, 0
14, 900.00000, 2300.74, 2142.52, 2073.34, 1865.28, 2427.14, 1806.96, 0, 0
14, 1800.00000, 2266.42, 2091.03, 2044.84, 1840.51, 2372.59, 1773.87, 0, 0
14, 2700.00000, 2260.16, 2099.77, 2033.71, 1844.1, 2368.34, 1775.82, 0, 0
15, 0.00000, 2273.55, 2101.5, 2049.22, 1854.58, 2375.22, 1783.77, 0, 0
15, 900.00000, 2209.89, 2053.14, 1986.81, 1789.72, 2326.48, 1728.23, 0, 0
15, 1800.00000, 2281.99, 2093.99, 2057.48, 1838.25, 2391.21, 1771.69, 0, 0
15, 2700.00000, 2291.77, 2087.7, 2071.15, 1858.64, 2379.83, 1782.11, 0, 0
16, 0.00000, 2318.78, 2129.19, 2089.03, 1881.64, 2418.29, 1806.44, 0, 0
16, 900.00000, 2293.17, 2119.83, 2059.11, 1855.79, 2404.8, 1785.11, 0, 0
16, 1800.00000, 2269.91, 2098.61, 2040.11, 1833.14, 2384.91, 1766.86, 0, 0
16, 2700.00000, 2367.54, 2070.16, 2145.09, 1801.55, 2488.94, 1743.21, 0, 0
17, 0.00000, 2412.66, 2095.8, 2189.57, 1860.49, 2504.9, 1784.94, 0, 0
17, 900.00000, 2441, 2129.87, 2218.22, 1891.71, 2535.86, 1817.85, 0, 0
17, 1800.00000, 2642.82, 2157.8, 2408.8, 1894.1, 2754.18, 1823.28, 0, 0
17, 2700.00000, 2625.77, 2135.78, 2395.18, 1881.58, 2730.62, 1808.99, 0, 0
18, 0.00000, 2631.61, 2170.85, 2397.98, 1890.25, 2757.81, 1828.22, 0, 0
18, 900.00000, 2808.25, 2368.13, 2559.26, 2072.26, 2939.99, 2004.57, 0, 0
18, 1800.00000, 2846.56, 2370.29, 2597.4, 2132.26, 2928.12, 2035.5, 0, 0
18, 2700.00000, 3105.3, 2422.48, 2858.01, 2183.68, 3188.47, 2088.92, 0, 0
19, 0.00000, 3107.41, 2439.88, 2857.91, 2177.17, 3210.17, 2092.44, 0, 0
19, 900.00000, 3047.2, 2372.41, 2802.05, 2119.4, 3143.74, 2033.6, 0, 0
19, 1800.00000, 3162.25, 2420.7, 2909.4, 2180.97, 3243.44, 2081.87, 0, 0
19, 2700.00000, 3202.99, 2471.43, 2944.63, 2227.83, 3284.77, 2125.88, 0, 0
20, 0.00000, 3163.57, 2466.82, 2901.56, 2186.67, 3275.18, 2099.84, 0, 0
20, 900.00000, 3163.56, 2430.61, 2908.43, 2190.58, 3243.87, 2089.64, 0, 0
20, 1800.00000, 3132.12, 2433.57, 2867.88, 2158.92, 3237.86, 2067.4, 0, 0
20, 2700.00000, 3129.63, 2419.37, 2860.68, 2164.65, 3215.75, 2059.09, 0, 0
21, 0.00000, 3214.5, 2507.46, 2945.71, 2257.67, 3296.43, 2149.79, 0, 0
21, 900.00000, 3101.45, 2409.1, 2831.23, 2119.29, 3217.32, 2030.18, 0, 0
21, 1800.00000, 3188.15, 2347.58, 2930.39, 2086.97, 3284.96, 1994.05, 0, 0
21, 2700.00000, 3134.85, 2291.69, 2876.79, 2035.86, 3227.37, 1940.29, 0, 0
22, 0.00000, 3071.75, 2216.91, 2823.23, 1974.67, 3157.27, 1880.56, 0, 0
22, 900.00000, 3125.19, 2286.17, 2867.85, 2030.24, 3218.16, 1935.34, 0, 0
22, 1800.00000, 3134.83, 2308.81, 2872.48, 2037, 3239.05, 1945.7, 0, 0
22, 2700.00000, 3197.79, 2271, 2938.67, 2007.6, 3296.34, 1914.89, 0, 0
23, 0.00000, 3177.35, 2249.13, 2919.86, 1986.88, 3275.72, 1895.01, 0, 0
23, 900.00000, 3137.54, 2193.12, 2881.85, 1961.8, 3210.03, 1856.03, 0, 0
23, 1800.00000, 3110.82, 2213.58, 2855.47, 1979.25, 3186.08, 1875.28, 0, 0
23, 2700.00000, 3059.9, 2161.1, 2805.69, 1929.48, 3133.39, 1825.14, 0, 0
24, 0.00000, 3051.52, 2169.77, 2796.15, 1913.6, 3145.68, 1820.53, 0, 0
24, 900.00000, 3021.23, 2111.02, 2781.51, 1895.37, 3088.12, 1795.59, 0, 0
24, 1800.00000, 2922.71, 2027.74, 2686.12, 1797.38, 3003.91, 1707.67, 0, 0
24, 2700.00000, 2822.51, 1937.22, 2601.38, 1727.97, 2893.16, 1641.09, 0, 0
25, 0.00000, 2893.41, 2011.22, 2657.68, 1801.02, 2957.58, 1701.98, 0, 0
25, 900.00000, 2849.2, 1965.08, 2618.66, 1760.49, 2911.11, 1663.14, 0, 0
25, 1800.00000, 2820.64, 1929.66, 2597, 1734.38, 2877.94, 1638.34, 0, 0
25, 2700.00000, 2835.8, 1945.55, 2607.87, 1754.02, 2887.7, 1652.39, 0, 0
26, 0.00000, 2864.41, 1998.64, 2623.68, 1774.48, 2938.17, 1678.08, 0, 0
26, 900.00000, 2804.73, 1920.59, 2578.15, 1722.98, 2862.57, 1625.56, 0, 0
26, 1800.00000, 2816.39, 1945.12, 2583.23, 1730.97, 2885.27, 1636.12, 0, 0
26, 2700.00000, 2737.4, 1881.2, 2515.09, 1678.54, 2801.75, 1587.34, 0, 0
27, 0.00000, 2646.89, 1775.11, 2441.18, 1600.13, 2695.57, 1509.47, 0, 0
27, 900.00000, 2662.82, 1816, 2446.89, 1600.78, 2741.24, 1521.39, 0, 0
27, 1800.00000, 2548.15, 1741.82, 2344.44, 1551.99, 2610.69, 1470.49, 0, 0
27, 2700.00000, 2673.92, 1884.86, 2446.6, 1659.25, 2755.64, 1575.19, 0, 0
28, 0.00000, 2646.57, 1858.34, 2422.8, 1631.54, 2731.1, 1551.15, 0, 0
28, 900.00000, 2615.63, 1812.4, 2401.45, 1607.05, 2686.38, 1524.24, 0, 0
28, 1800.00000, 2710.21, 1913.5, 2481.69, 1691.25, 2788.43, 1604.48, 0, 0
28, 2700.00000, 2617.85, 1828.45, 2401.12, 1610.5, 2698.24, 1531.78, 0, 0
29, 0.00000, 2654.21, 1859.43, 2433.32, 1648, 2726.86, 1562.42, 0, 0
29, 900.00000, 2624.32, 1834.64, 2405.31, 1620.41, 2700.34, 1537.85, 0, 0
29, 1800.00000, 2558.5, 1904.02, 2325.48, 1669.42, 2645.16, 1584.92, 0, 0
29, 2700.00000, 2534.82, 1874.73, 2308.6, 1644.17, 2621.38, 1563.54, 0, 0
30, 0.00000, 2435.67, 1785.48, 2218.82, 1548.05, 2532.86, 1478.97, 0, 0
30, 900.00000, 2519.96, 1870.09, 2293.31, 1619.34, 2623.78, 1548.43, 0, 0
30, 1800.00000, 2546.3, 1858.71, 2326.79, 1657.02, 2611.21, 1567.77, 0, 0
30, 2700.00000, 2266.69, 1748.73, 2061.39, 1545.4, 2340.13, 1469.26, 0, 0
31, 0.00000, 2347.13, 1827.16, 2136.68, 1606.04, 2433.39, 1534.35, 0, 0
31, 900.00000, 2389.9, 1868.82, 2177.93, 1633.14, 2488.03, 1567.41, 0, 0
31, 1800.00000, 2177.77, 1746.12, 1979.19, 1535.71, 2260.7, 1468.93, 0, 0
31, 2700.00000, 2191.47, 1759.69, 1993.94, 1533.06, 2288.97, 1475.31, 0, 0
32, 0.00000, 2296.77, 1836.43, 2098.39, 1623.62, 2381.88, 1558.22, 0, 0
32, 900.00000, 2201.12, 1744.85, 2012.32, 1533.02, 2290.17, 1475.42, 0, 0
32, 1800.00000, 2239, 1772.78, 2050.56, 1556.36, 2332.2, 1501.37, 0, 0
32, 2700.00000, 2239.14, 1880.2, 2035.99, 1642.81, 2343.16, 1585.57, 0, 0
33, 0.00000, 2372.26, 2003.44, 2151.07, 1774.91, 2459.58, 1697.62, 0, 0
33, 900.00000, 2323.57, 1952.62, 2111.91, 1722.86, 2416.72, 1654.44, 0, 0
33, 1800.00000, 2270.1, 1947.03, 2068.5, 1707.56, 2376.69, 1652.7, 0, 0
33, 2700.00000, 2170.28, 1840.25, 1976.79, 1630.8, 2254.92, 1567.95, 0, 0
34, 0.00000, 2180.4, 1855.36, 1987.2, 1633.78, 2275.7, 1577.25, 0, 0
34, 900.00000, 2265.12, 1936.87, 2062.91, 1709.5, 2360.92, 1648.07, 0, 0
34, 1800.00000, 2234.65, 1915.04, 2032.91, 1679.72, 2337.57, 1622.67, 0, 0
34, 2700.00000, 2249.64, 1991.12, 2035.81, 1724.84, 2373.33, 1672.79, 0, 0
35, 0.00000, 2232.15, 1960.36, 2027.13, 1711.13, 2345.48, 1658.19, 0, 0
35, 900.00000, 2209.48, 1899.99, 2020.69, 1704.49, 2284.39, 1638.74, 0, 0
35, 1800.00000, 2206.99, 1988.62, 1997.6, 1732.19, 2324.37, 1679.07, 0, 0
35, 2700.00000, 2172.74, 1962.72, 1964.98, 1701.82, 2294.8, 1652.34, 0, 0
36, 0.00000, 2121.59, 1892.06, 1923.9, 1673.01, 2212.44, 1611.33, 0, 0
36, 900.00000, 2258.24, 2051.73, 2038.09, 1787.53, 2376.97, 1728.97, 0, 0
36, 1800.00000, 2239.67, 2018.24, 2029.06, 1772.58, 2347.12, 1713.01, 0, 0
36, 2700.00000, 2111.97, 2015.34, 1899.44, 1755.92, 2230.37, 1701.57, 0, 0
37, 0.00000, 2137.65, 1979.24, 1928.2, 1718.23, 2258.97, 1667.35, 0, 0
37, 900.00000, 2188.13, 2020.33, 1974.66, 1762.95, 2304.29, 1706.77, 0, 0
37, 1800.00000, 2235.8, 2055.65, 2017.45, 1815.54, 2334.56, 1746.5, 0, 0
37, 2700.00000, 2414.11, 2250.52, 2175.18, 1981.46, 2527.66, 1909.07, 0, 0
38, 0.00000, 2352.86, 2186.94, 2120.72, 1923.18, 2465.21, 1854.02, 0, 0
38, 900.00000, 2300.74, 2142.52, 2073.33, 1865.28, 2427.13, 1806.96, 0, 0
38, 1800.00000, 2266.42, 2091.03, 2044.84, 1840.51, 2372.59, 1773.87, 0, 0
38, 2700.00000, 2260.16, 2099.77, 2033.71, 1844.1, 2368.34, 1775.82, 0, 0
39, 0.00000, 2273.55, 2101.5, 2049.22, 1854.58, 2375.22, 1783.77, 0, 0
39, 900.00000, 2209.89, 2053.15, 1986.79, 1789.73, 2326.47, 1728.23, 0, 0
39, 1800.00000, 2281.99, 2093.98, 2057.48, 1838.25, 2391.21, 1771.69, 0, 0
39, 2700.00000, 2291.77, 2087.69, 2071.16, 1858.64, 2379.83, 1782.11, 0, 0
40, 0.00000, 2318.78, 2129.19, 2089.03, 1881.64, 2418.29, 1806.44, 0, 0
40, 900.00000, 2293.16, 2119.83, 2059.1, 1855.79, 2404.8, 1785.1, 0, 0
40, 1800.00000, 2269.91, 2098.61, 2040.11, 1833.15, 2384.91, 1766.86, 0, 0
40, 2700.00000, 2367.53, 2070.16, 2145.09, 1801.55, 2488.94, 1743.21, 0, 0
41, 0.00000, 2412.66, 2095.79, 2189.58, 1860.49, 2504.9, 1784.94, 0, 0
41, 900.00000, 2441, 2129.87, 2218.22, 1891.7, 2535.87, 1817.86, 0, 0
41, 1800.00000, 2642.82, 2157.8, 2408.8, 1894.09, 2754.19, 1823.28, 0, 0
41, 2700.00000, 2625.77, 2135.78, 2395.18, 1881.58, 2730.62, 1808.99, 0, 0
42, 0.00000, 2631.62, 2170.85, 2397.98, 1890.25, 2757.81, 1828.22, 0, 0
42, 900.00000, 2808.25, 2368.14, 2559.26, 2072.28, 2939.98, 2004.57, 0, 0
42, 1800.00000, 2846.56, 2370.31, 2597.37, 2132.29, 2928.1, 2035.5, 0, 0
42, 2700.00000, 3105.31, 2422.49, 2858.03, 2183.7, 3188.47, 2088.94, 0, 0
43, 0.00000, 3107.41, 2439.89, 2857.87, 2177.18, 3210.16, 2092.43, 0, 0
43, 900.00000, 3047.19, 2372.43, 2802.03, 2119.41, 3143.73, 2033.6, 0, 0
43, 1800.00000, 3162.24, 2420.7, 2909.41, 2180.96, 3243.44, 2081.87, 0, 0
43, 2700.00000, 3203, 2471.45, 2944.64, 2227.84, 3284.79, 2125.89, 0, 0
44, 0.00000, 3163.56, 2466.81, 2901.58, 2186.64, 3275.2, 2099.85, 0, 0
44, 900.00000, 3163.56, 2430.61, 2908.41, 2190.59, 3243.85, 2089.63, 0, 0
44, 1800.00000, 3132.13, 2433.56, 2867.89, 2158.93, 3237.85, 2067.4, 0, 0
44, 2700.00000, 3129.63, 2419.37, 2860.68, 2164.64, 3215.76, 2059.09, 0, 0
45, 0.00000, 3214.49, 2507.47, 2945.71, 2257.67, 3296.43, 2149.8, 0, 0
45, 900.00000, 3101.45, 2409.1, 2831.23, 2119.29, 3217.32, 2030.17, 0, 0
45, 1800.00000, 3188.15, 2347.58, 2930.39, 2086.98, 3284.96, 1994.05, 0, 0
45, 2700.00000, 3134.85, 2291.69, 2876.79, 2035.86, 3227.37, 1940.29, 0, 0
46, 0.00000, 3071.75, 2216.91, 2823.23, 1974.67, 3157.27, 1880.56, 0, 0
46, 900.00000, 3125.19, 2286.17, 2867.85, 2030.24, 3218.16, 1935.34, 0, 0
46, 1800.00000, 3134.83, 2308.81, 2872.48, 2037, 3239.05, 1945.7, 0, 0
46, 2700.00000, 3197.79, 2271, 2938.67, 2007.6, 3296.34, 1914.89, 0, 0
47, 0.00000, 3177.35, 2249.13, 2919.86, 1986.88, 3275.72, 1895.01, 0, 0
47, 900.00000, 3137.54, 2193.12, 2881.85, 1961.8, 3210.03, 1856.03, 0, 0
47, 1800.00000, 3110.82, 2213.58, 2855.47, 1979.25, 3186.08, 1875.28, 0, 0
47, 2700.00000, 3059.9, 2161.1, 2805.69, 1929.48, 3133.39, 1825.14, 0, 0
48, 0.00000, 3051.52, 2169.77, 2796.15, 1913.6, 3145.68, 1820.53, 0, 0
