hour, t(sec), |V|1 (volts), |V|2 (volts), |V|3 (volts), |V|4 (volts), |I|1 (amps), |I|2 (amps), |I|3 (amps), |I|4 (amps)
0, 900.00000, 115.843, 119.882, 119.386, 0, 405.37, 277.659, 306.198, 115.976
0, 1800.00000, 116.48, 120.509, 119.876, 0, 388.874, 261.223, 293.589, 114.682
0, 2700.00000, 117.043, 120.793, 120.28, 0, 372.91, 253.464, 282.071, 107.747
1, 0.00000, 116.42, 120.291, 119.79, 0, 389.693, 267.013, 295.14, 111.182
1, 900.00000, 116.73, 120.574, 119.987, 0, 381.604, 259.715, 290.174, 109.675
1, 1800.00000, 116.975, 120.708, 120.177, 0, 375.149, 256.498, 285.235, 107.014
1, 2700.00000, 117.293, 120.618, 120.392, 0, 365.029, 259.085, 278.201, 97.8732
2, 0.00000, 117.115, 120.526, 120.163, 0, 369.234, 260.517, 284.42, 98.9233
2, 900.00000, 117.331, 120.823, 120.448, 0, 364.767, 253.409, 277.296, 101.392
2, 1800.00000, 117.32, 120.913, 120.451, 0, 364.677, 250.197, 276.803, 103.499
2, 2700.00000, 117.599, 121.148, 120.617, 0, 356.712, 243.287, 271.944, 101.705
3, 0.00000, 118.338, 121.553, 121.243, 0, 336.617, 233.121, 254.475, 94.4859
3, 900.00000, 118.01, 121.712, 121.024, 0, 346.053, 227.396, 260.828, 105.364
3, 1800.00000, 118.769, 121.996, 121.522, 0, 324.629, 220.417, 246.609, 93.6298
3, 2700.00000, 117.725, 121.298, 120.696, 0, 353.069, 238.732, 269.858, 101.819
4, 0.00000, 117.884, 121.468, 120.81, 0, 349.052, 234.145, 267.053, 101.88
4, 900.00000, 118.259, 121.507, 121.099, 0, 338.378, 233.749, 258.73, 94.3505
4, 1800.00000, 117.832, 121.08, 120.724, 0, 348.638, 244.391, 268.083, 94.382
4, 2700.00000, 118.241, 121.614, 121.077, 0, 338.104, 229.367, 258.506, 97.0615
5, 0.00000, 117.935, 121.434, 120.849, 0, 346.563, 234.302, 264.674, 100.07
5, 900.00000, 118.509, 121.606, 121.229, 0, 329.748, 229.679, 253.427, 90.3485
5, 1800.00000, 117.567, 121.083, 120.493, 0, 357.133, 244.444, 275.621, 100.307
5, 2700.00000, 117.769, 121.423, 120.7, 0, 351.738, 234.504, 269.655, 103.496
6, 0.00000, 118.421, 122.136, 121.306, 0, 334.561, 214.704, 252.851, 105.385
6, 900.00000, 117.78, 121.644, 120.808, 0, 351.694, 227.666, 266.508, 109.046
6, 1800.00000, 117.614, 121.208, 120.698, 0, 356.338, 241.109, 269.633, 103.455
6, 2700.00000, 120.408, 123.222, 123.03, 0, 247.264, 163.346, 176.313, 81.5561
7, 0.00000, 119.847, 123.017, 122.527, 0, 262.54, 167.497, 190.459, 88.0957
7, 900.00000, 119.446, 122.718, 122.438, 0, 273.255, 175.147, 191.764, 93.9175
7, 1800.00000, 122.768, 124.659, 124.842, 0, 156.401, 107.185, 107.713, 59.8164
7, 2700.00000, 122.877, 124.868, 124.89, 0, 151.976, 99.8334, 105.12, 58.9306
8, 0.00000, 122.359, 124.401, 124.519, 0, 163.831, 110.105, 112.364, 62.7867
8, 900.00000, 122.838, 124.934, 124.872, 0, 151.699, 96.6737, 103.954, 60.4719
8, 1800.00000, 122.924, 124.909, 124.959, 0, 147.748, 95.8761, 100.434, 59.5601
8, 2700.00000, 123.734, 125.467, 125.669, 0, 128.221, 83.876, 92.4249, 59.5417
9, 0.00000, 123.067, 124.643, 125.08, 0, 139.09, 97.9831, 99.2196, 62.2949
9, 900.00000, 123.726, 125.06, 125.523, 0, 126.376, 89.6111, 92.9674, 57.8714
9, 1800.00000, 126.394, 127.183, 127.707, 0, 185.991, 124.587, 162.475, 73.9797
9, 2700.00000, 126.892, 127.355, 128.155, 0, 191.835, 125.561, 169.162, 81.5794
10, 0.00000, 126.615, 127.516, 127.914, 0, 188.036, 128.128, 165.195, 71.9026
10, 900.00000, 126.374, 126.927, 127.713, 0, 185.917, 121.627, 162.87, 80.6844
10, 1800.00000, 126.384, 127.103, 127.658, 0, 185.77, 123.472, 161.756, 74.8747
10, 2700.00000, 129.25, 129.465, 130.073, 0, 376.136, 255.848, 323.874, 120.905
11, 0.00000, 129.323, 129.524, 130.214, 0, 377.458, 256.771, 327.03, 123.362
11, 900.00000, 129.998, 129.605, 130.652, 0, 393.092, 257.994, 337.451, 136.015
11, 1800.00000, 130.047, 130.052, 130.926, 0, 434.697, 294.745, 376.862, 142.577
11, 2700.00000, 129.916, 130.22, 130.899, 0, 430.562, 298.022, 375.432, 136.431
12, 0.00000, 130.657, 130.216, 131.336, 0, 447.442, 296.279, 385.201, 152.011
12, 900.00000, 129.791, 129.546, 130.589, 0, 428.994, 283.285, 368.626, 147.203
12, 1800.00000, 129.959, 129.899, 130.851, 0, 432.578, 291.154, 374.87, 144.465
12, 2700.00000, 130.263, 130.24, 131.076, 0, 466.651, 316.155, 401.824, 150.656
13, 0.00000, 130.843, 130.709, 131.525, 0, 480.544, 327.033, 412.883, 151.849
13, 900.00000, 130.48, 130.374, 131.254, 0, 472.195, 319.462, 406.56, 152.688
13, 1800.00000, 130.082, 129.953, 130.971, 0, 462.378, 309.262, 399.379, 155.663
13, 2700.00000, 128.949, 129.022, 129.977, 0, 439.504, 291.838, 378.483, 151.041
14, 0.00000, 129.55, 129.507, 130.418, 0, 452.636, 301.918, 388.263, 151.347
14, 900.00000, 129.626, 129.946, 130.53, 0, 453.164, 311.298, 389.875, 141.578
14, 1800.00000, 129.856, 129.917, 130.679, 0, 457.844, 309.562, 392.898, 147.765
14, 2700.00000, 129.587, 129.953, 130.581, 0, 457.609, 314.587, 395.613, 144.846
15, 0.00000, 129.709, 129.895, 130.739, 0, 460.963, 313.432, 399.935, 151.331
15, 900.00000, 130.101, 130.352, 130.972, 0, 469.378, 323.48, 404.803, 145.948
15, 1800.00000, 129.4, 129.835, 130.483, 0, 439.489, 303.051, 382.221, 140.552
15, 2700.00000, 129.37, 129.519, 130.412, 0, 438.621, 295.465, 380.229, 147.493
16, 0.00000, 129.427, 129.444, 130.401, 0, 440.8, 294.381, 380.621, 149.692
16, 900.00000, 129.319, 129.571, 130.304, 0, 437.943, 297.1, 378.032, 143.045
16, 1800.00000, 129.872, 129.816, 130.663, 0, 451.014, 302.543, 386.758, 148.114
16, 2700.00000, 127.918, 128.38, 129.045, 0, 313.869, 211.413, 272.963, 109.028
17, 0.00000, 127.72, 128.031, 128.878, 0, 310.245, 204.694, 269.71, 114.05
17, 900.00000, 127.826, 127.924, 128.819, 0, 313.023, 203.369, 268.806, 115.185
17, 1800.00000, 123.758, 124.903, 125.608, 0, 146.256, 102.214, 116.637, 71.5289
17, 2700.00000, 123.617, 124.908, 125.579, 0, 147.74, 102.607, 116.734, 72.7394
18, 0.00000, 123.008, 124.971, 125.209, 0, 154.443, 101.8, 118.105, 72.0614
18, 900.00000, 121.8, 123.741, 124.151, 0, 170.739, 118.264, 126.622, 75.49
18, 1800.00000, 121.618, 123.225, 124.064, 0, 173.676, 128.571, 127.41, 81.9648
18, 2700.00000, 116.112, 119.539, 119.508, 0, 361.041, 259.673, 271.459, 99.7751
19, 0.00000, 116.278, 119.597, 119.552, 0, 355.997, 258.029, 270.179, 96.1772
19, 900.00000, 116.149, 119.702, 119.63, 0, 362.552, 257.548, 270.184, 102.955
19, 1800.00000, 114.21, 117.967, 118.004, 0, 445.222, 326.194, 340.678, 112.9
19, 2700.00000, 113.626, 117.542, 117.381, 0, 461.703, 338.077, 358.85, 114.936
20, 0.00000, 113.595, 117.88, 117.444, 0, 463.506, 328.556, 357.605, 123.068
20, 900.00000, 114.311, 118.093, 117.765, 0, 442.617, 322.961, 348.268, 109.332
20, 1800.00000, 113.851, 118.162, 117.675, 0, 456.92, 321.248, 351.484, 123.346
20, 2700.00000, 114.035, 117.916, 117.758, 0, 451.265, 328.967, 348.798, 113.975
21, 0.00000, 113.14, 117.334, 117.24, 0, 475.823, 344.282, 362.74, 123.784
21, 900.00000, 114.4, 118.521, 118.02, 0, 440.952, 310.836, 341.387, 117.79
21, 1800.00000, 114.39, 118.715, 118.207, 0, 441.874, 305.792, 335.693, 123.815
21, 2700.00000, 115.046, 118.839, 118.637, 0, 424.335, 304.469, 324.823, 111.283
22, 0.00000, 115.393, 119.245, 118.997, 0, 416.374, 294.522, 315.828, 112.853
22, 900.00000, 114.734, 118.898, 118.509, 0, 434.576, 303.354, 329.369, 120.387
22, 1800.00000, 114.401, 118.92, 118.282, 0, 444.344, 302.298, 336.057, 128.37
22, 2700.00000, 114.88, 119.102, 118.501, 0, 430.697, 297.404, 330.091, 120.177
23, 0.00000, 114.969, 119.218, 118.532, 0, 428.695, 294.792, 329.678, 120.103
23, 900.00000, 115.546, 119.24, 118.957, 0, 412.586, 295.613, 317.776, 107.737
23, 1800.00000, 115.332, 119.299, 118.825, 0, 417.677, 292.406, 320.349, 113.872
23, 2700.00000, 115.888, 119.576, 119.204, 0, 402.42, 285.588, 310.204, 106.71
24, 0.00000, 115.824, 119.769, 119.176, 0, 404.527, 279.722, 311.312, 112.236
24, 900.00000, 115.843, 119.882, 119.386, 0, 405.37, 277.659, 306.198, 115.976
24, 1800.00000, 116.48, 120.509, 119.876, 0, 388.874, 261.223, 293.589, 114.682
24, 2700.00000, 117.043, 120.793, 120.28, 0, 372.91, 253.464, 282.071, 107.747
25, 0.00000, 116.42, 120.291, 119.79, 0, 389.693, 267.013, 295.14, 111.181
25, 900.00000, 116.73, 120.574, 119.987, 0, 381.601, 259.714, 290.173, 109.673
25, 1800.00000, 116.975, 120.708, 120.177, 0, 375.15, 256.493, 285.235, 107.016
25, 2700.00000, 117.293, 120.618, 120.392, 0, 365.027, 259.084, 278.199, 97.8727
26, 0.00000, 117.115, 120.526, 120.163, 0, 369.234, 260.517, 284.42, 98.9234
26, 900.00000, 117.331, 120.823, 120.448, 0, 364.767, 253.394, 277.296, 101.397
26, 1800.00000, 117.32, 120.913, 120.451, 0, 364.677, 250.199, 276.803, 103.497
26, 2700.00000, 117.599, 121.148, 120.617, 0, 356.712, 243.27, 271.944, 101.709
27, 0.00000, 118.338, 121.553, 121.243, 0, 336.617, 233.122, 254.477, 94.4851
27, 900.00000, 118.01, 121.712, 121.024, 0, 346.053, 227.396, 260.828, 105.364
27, 1800.00000, 118.769, 121.996, 121.522, 0, 324.629, 220.418, 246.61, 93.6292
27, 2700.00000, 117.725, 121.298, 120.696, 0, 353.069, 238.73, 269.856, 101.82
28, 0.00000, 117.884, 121.468, 120.81, 0, 349.052, 234.132, 267.042, 101.892
28, 900.00000, 118.259, 121.507, 121.099, 0, 338.378, 233.749, 258.73, 94.3503
28, 1800.00000, 117.832, 121.08, 120.724, 0, 348.638, 244.39, 268.082, 94.3827
28, 2700.00000, 118.241, 121.614, 121.077, 0, 338.104, 229.368, 258.507, 97.0607
29, 0.00000, 117.935, 121.434, 120.849, 0, 346.564, 234.298, 264.67, 100.073
29, 900.00000, 118.509, 121.606, 121.229, 0, 329.748, 229.679, 253.428, 90.3481
29, 1800.00000, 117.567, 121.083, 120.493, 0, 357.133, 244.443, 275.621, 100.308
29, 2700.00000, 117.769, 121.423, 120.7, 0, 351.738, 234.504, 269.655, 103.496
30, 0.00000, 118.421, 122.136, 121.306, 0, 334.561, 214.706, 252.853, 105.383
30, 900.00000, 117.78, 121.644, 120.808, 0, 351.694, 227.665, 266.506, 109.047
30, 1800.00000, 117.614, 121.208, 120.698, 0, 356.338, 241.108, 269.632, 103.456
30, 2700.00000, 120.408, 123.222, 123.03, 0, 247.264, 163.346, 176.313, 81.5562
31, 0.00000, 119.847, 123.017, 122.527, 0, 262.54, 167.497, 190.459, 88.0957
31, 900.00000, 119.446, 122.718, 122.438, 0, 273.255, 175.147, 191.764, 93.9175
31, 1800.00000, 122.768, 124.659, 124.842, 0, 156.401, 107.185, 107.713, 59.8164
31, 2700.00000, 122.877, 124.868, 124.89, 0, 151.976, 99.8334, 105.12, 58.9306
32, 0.00000, 122.359, 124.401, 124.519, 0, 163.831, 110.105, 112.364, 62.7867
32, 900.00000, 122.838, 124.934, 124.872, 0, 151.699, 96.6737, 103.954, 60.4719
32, 1800.00000, 122.924, 124.909, 124.959, 0, 147.748, 95.8761, 100.434, 59.5601
32, 2700.00000, 123.734, 125.467, 125.669, 0, 128.221, 83.876, 92.4249, 59.5417
33, 0.00000, 123.067, 124.643, 125.08, 0, 139.09, 97.9831, 99.2196, 62.2949
33, 900.00000, 123.726, 125.06, 125.523, 0, 126.376, 89.6111, 92.9674, 57.8714
33, 1800.00000, 126.394, 127.183, 127.707, 0, 185.991, 124.587, 162.475, 73.9797
33, 2700.00000, 126.892, 127.355, 128.155, 0, 191.835, 125.561, 169.162, 81.5794
34, 0.00000, 126.615, 127.516, 127.914, 0, 188.036, 128.128, 165.195, 71.9026
34, 900.00000, 126.374, 126.927, 127.713, 0, 185.917, 121.627, 162.87, 80.6844
34, 1800.00000, 126.384, 127.103, 127.658, 0, 185.77, 123.472, 161.756, 74.8747
34, 2700.00000, 129.25, 129.465, 130.073, 0, 376.136, 255.848, 323.874, 120.905
35, 0.00000, 129.323, 129.524, 130.214, 0, 377.458, 256.771, 327.03, 123.362
35, 900.00000, 129.998, 129.605, 130.652, 0, 393.092, 257.994, 337.451, 136.015
35, 1800.00000, 130.047, 130.052, 130.926, 0, 434.697, 294.745, 376.862, 142.577
35, 2700.00000, 129.916, 130.22, 130.899, 0, 430.562, 298.022, 375.432, 136.431
36, 0.00000, 130.657, 130.216, 131.336, 0, 447.442, 296.279, 385.201, 152.011
36, 900.00000, 129.791, 129.546, 130.589, 0, 428.994, 283.285, 368.626, 147.203
36, 1800.00000, 129.959, 129.899, 130.851, 0, 432.578, 291.154, 374.87, 144.465
36, 2700.00000, 130.263, 130.24, 131.076, 0, 466.651, 316.155, 401.824, 150.656
37, 0.00000, 130.843, 130.709, 131.525, 0, 480.544, 327.033, 412.883, 151.849
37, 900.00000, 130.48, 130.374, 131.254, 0, 472.195, 319.462, 406.56, 152.688
37, 1800.00000, 130.082, 129.953, 130.971, 0, 462.378, 309.262, 399.379, 155.663
37, 2700.00000, 128.949, 129.022, 129.977, 0, 439.504, 291.838, 378.483, 151.041
38, 0.00000, 129.55, 129.507, 130.418, 0, 452.636, 301.918, 388.263, 151.347
38, 900.00000, 129.626, 129.946, 130.53, 0, 453.164, 311.298, 389.875, 141.578
38, 1800.00000, 129.856, 129.917, 130.679, 0, 457.844, 309.562, 392.898, 147.765
38, 2700.00000, 129.587, 129.953, 130.581, 0, 457.609, 314.587, 395.613, 144.846
39, 0.00000, 129.709, 129.895, 130.739, 0, 460.963, 313.432, 399.935, 151.331
39, 900.00000, 130.101, 130.352, 130.972, 0, 469.378, 323.48, 404.803, 145.948
39, 1800.00000, 129.4, 129.835, 130.483, 0, 439.489, 303.051, 382.221, 140.552
39, 2700.00000, 129.37, 129.519, 130.412, 0, 438.621, 295.465, 380.229, 147.493
40, 0.00000, 129.427, 129.444, 130.401, 0, 440.8, 294.381, 380.621, 149.692
40, 900.00000, 129.319, 129.571, 130.304, 0, 437.943, 297.1, 378.032, 143.045
40, 1800.00000, 129.872, 129.816, 130.663, 0, 451.014, 302.543, 386.758, 148.114
40, 2700.00000, 127.918, 128.38, 129.045, 0, 313.869, 211.413, 272.963, 109.028
41, 0.00000, 127.72, 128.031, 128.878, 0, 310.245, 204.694, 269.71, 114.05
41, 900.00000, 127.826, 127.924, 128.819, 0, 313.023, 203.369, 268.806, 115.185
41, 1800.00000, 123.758, 124.903, 125.608, 0, 146.256, 102.214, 116.637, 71.5289
41, 2700.00000, 123.617, 124.908, 125.579, 0, 147.74, 102.607, 116.734, 72.7394
42, 0.00000, 123.008, 124.971, 125.209, 0, 154.443, 101.8, 118.105, 72.0614
42, 900.00000, 121.8, 123.741, 124.151, 0, 170.739, 118.264, 126.622, 75.49
42, 1800.00000, 121.618, 123.225, 124.064, 0, 173.676, 128.571, 127.41, 81.9648
42, 2700.00000, 116.112, 119.539, 119.508, 0, 361.041, 259.673, 271.459, 99.7751
43, 0.00000, 116.278, 119.597, 119.552, 0, 355.997, 258.029, 270.179, 96.1772
43, 900.00000, 116.149, 119.702, 119.63, 0, 362.552, 257.548, 270.184, 102.955
43, 1800.00000, 114.21, 117.967, 118.004, 0, 445.222, 326.194, 340.678, 112.9
43, 2700.00000, 113.626, 117.542, 117.381, 0, 461.703, 338.077, 358.85, 114.936
44, 0.00000, 113.595, 117.88, 117.444, 0, 463.506, 328.556, 357.605, 123.068
44, 900.00000, 114.311, 118.093, 117.765, 0, 442.617, 322.961, 348.268, 109.332
44, 1800.00000, 113.851, 118.162, 117.675, 0, 456.92, 321.248, 351.484, 123.346
44, 2700.00000, 114.035, 117.916, 117.758, 0, 451.265, 328.967, 348.798, 113.975
45, 0.00000, 113.14, 117.334, 117.24, 0, 475.823, 344.282, 362.74, 123.784
45, 900.00000, 114.4, 118.521, 118.02, 0, 440.952, 310.836, 341.387, 117.79
45, 1800.00000, 114.39, 118.715, 118.207, 0, 441.874, 305.792, 335.693, 123.815
45, 2700.00000, 115.046, 118.839, 118.637, 0, 424.335, 304.469, 324.823, 111.283
46, 0.00000, 115.393, 119.245, 118.997, 0, 416.374, 294.522, 315.828, 112.853
46, 900.00000, 114.734, 118.898, 118.509, 0, 434.576, 303.354, 329.369, 120.387
46, 1800.00000, 114.401, 118.92, 118.282, 0, 444.344, 302.298, 336.057, 128.37
46, 2700.00000, 114.88, 119.102, 118.501, 0, 430.697, 297.404, 330.091, 120.177
47, 0.00000, 114.969, 119.218, 118.532, 0, 428.695, 294.792, 329.678, 120.103
47, 900.00000, 115.546, 119.24, 118.957, 0, 412.586, 295.613, 317.776, 107.737
47, 1800.00000, 115.332, 119.299, 118.825, 0, 417.677, 292.406, 320.349, 113.872
47, 2700.00000, 115.888, 119.576, 119.204, 0, 402.42, 285.588, 310.204, 106.71
48, 0.00000, 115.824, 119.769, 119.176, 0, 404.527, 279.722, 311.312, 112.236
